
TF9C0 000:078 SEGGER J-Link V6.10i Log File (0000ms, 0043ms total)
TF9C0 000:078 DLL Compiled: Oct 25 2016 19:31:51 (0000ms, 0043ms total)
TF9C0 000:078 Logging started @ 2019-03-20 10:03 (0000ms, 0043ms total)
TF9C0 000:078 JLINK_SetWarnOutHandler(...) (0000ms, 0043ms total)
TF9C0 000:078 JLINK_OpenEx(...)
Firmware: J-Link V9 compiled Jan 11 2018 11:06:30
Hardware: V9.30
S/N: 59300616
Feature(s): RDI, FlashBP, FlashDL, JFlash, GDBWEBSRV Webserver running on local port 19080 (0025ms, 0068ms total)
TF9C0 000:078   returns O.K. (0025ms, 0068ms total)
TF9C0 000:103 JLINK_SetErrorOutHandler(...) (0000ms, 0068ms total)
TF9C0 000:103 JLINK_ExecCommand("ProjectFile = "C:\Users\winterssy\Desktop\test_airshipboard2\test_new_air\MDK-ARM\JLinkSettings.ini"", ...).   returns 0x00 (0094ms, 0162ms total)
TF9C0 000:199 JLINK_ExecCommand("Device = STM32F427IITx", ...). Device "STM32F427II" selected.  returns 0x00 (0006ms, 0168ms total)
TF9C0 000:205 JLINK_ExecCommand("DisableConnectionTimeout", ...).   returns 0x01 (0000ms, 0168ms total)
TF9C0 000:205 JLINK_GetHardwareVersion()  returns 0x16B48 (0000ms, 0168ms total)
TF9C0 000:205 JLINK_GetDLLVersion()  returns 61009 (0000ms, 0168ms total)
TF9C0 000:205 JLINK_GetFirmwareString(...) (0000ms, 0168ms total)
TF9C0 000:210 JLINK_GetDLLVersion()  returns 61009 (0000ms, 0168ms total)
TF9C0 000:210 JLINK_GetCompileDateTime() (0000ms, 0168ms total)
TF9C0 000:211 JLINK_GetFirmwareString(...) (0000ms, 0168ms total)
TF9C0 000:212 JLINK_GetHardwareVersion()  returns 0x16B48 (0000ms, 0168ms total)
TF9C0 000:217 JLINK_TIF_Select(JLINKARM_TIF_SWD)  returns 0x00 (0004ms, 0172ms total)
TF9C0 000:221 JLINK_SetSpeed(5000) (0001ms, 0173ms total)
TF9C0 000:222 JLINK_GetId() >0x108 TIF>Found SWD-DP with ID 0x2BA01477 >0x0D TIF> >0x28 TIF> >0x0D TIF> >0x28 TIF> >0x0D TIF> >0x28 TIF> >0x0D TIF> >0x28 TIF> >0x0D TIF> >0x21 TIF> >0x0D TIF> >0x28 TIF> >0x0D TIF> >0x28 TIF> >0x0D TIF> >0x28 TIF> >0x0D TIF> >0x21 TIF> >0x0D TIF> >0x21 TIF> >0x0D TIF> >0x28 TIF> >0x0D TIF> >0x21 TIF> >0x0D TIF> >0x21 TIF> >0x0D TIF> >0x28 TIF> >0x0D TIF> >0x21 TIF> >0x0D TIF> >0x21 TIF> >0x0D TIF> >0x28 TIF> >0x0D TIF> >0x21 TIF> >0x0D TIF> >0x21 TIF> >0x0D TIF>
 >0x28 TIF> >0x0D TIF> >0x21 TIF> >0x0D TIF> >0x21 TIF> >0x0D TIF> >0x28 TIF> >0x0D TIF> >0x21 TIF> >0x0D TIF> >0x21 TIF> >0x0D TIF> >0x28 TIF> >0x0D TIF> >0x21 TIF> >0x0D TIF> >0x21 TIF> >0x108 TIF>Found SWD-DP with ID 0x2BA01477 >0x0D TIF> >0x28 TIF> >0x0D TIF> >0x28 TIF> >0x0D TIF> >0x28 TIF> >0x0D TIF> >0x28 TIF> >0x0D TIF> >0x21 TIF> >0x0D TIF> >0x28 TIF> >0x0D TIF> >0x28 TIF> >0x0D TIF> >0x21 TIF> >0x0D TIF> >0x21 TIF> >0x0D TIF> >0x21 TIF>AP-IDR: 0x24770011, Type: AHB-AP >0x0D TIF> >0x28 TIF>
 >0x0D TIF> >0x28 TIF> >0x0D TIF> >0x28 TIF> >0x0D TIF> >0x21 TIF> >0x0D TIF> >0x21 TIF> >0x0D TIF> >0x28 TIF> >0x0D TIF> >0x21 TIF> >0x0D TIF> >0x21 TIF>Found Cortex-M4 r0p1, Little endian. -- CPU_ReadMem(4 bytes @ 0xE000EDF0) -- CPU_WriteMem(4 bytes @ 0xE000EDF0) -- CPU_ReadMem(4 bytes @ 0xE0002000)FPUnit: 6 code (BP) slots and 2 literal slots -- CPU_ReadMem(4 bytes @ 0xE000EDFC) -- CPU_WriteMem(4 bytes @ 0xE000EDFC) -- CPU_ReadMem(4 bytes @ 0xE0001000) -- CPU_WriteMem(4 bytes @ 0xE0001000)
 -- CPU_ReadMem(4 bytes @ 0xE000ED88) -- CPU_WriteMem(4 bytes @ 0xE000ED88) -- CPU_ReadMem(4 bytes @ 0xE000ED88) -- CPU_WriteMem(4 bytes @ 0xE000ED88)CoreSight components:ROMTbl 0 @ E00FF000 -- CPU_ReadMem(16 bytes @ 0xE00FF000) -- CPU_ReadMem(16 bytes @ 0xE000EFF0) -- CPU_ReadMem(16 bytes @ 0xE000EFE0)ROMTbl 0 [0]: FFF0F000, CID: B105E00D, PID: 000BB00C SCS -- CPU_ReadMem(16 bytes @ 0xE0001FF0) -- CPU_ReadMem(16 bytes @ 0xE0001FE0)ROMTbl 0 [1]: FFF02000, CID: B105E00D, PID: 003BB002 DWT
 -- CPU_ReadMem(16 bytes @ 0xE0002FF0) -- CPU_ReadMem(16 bytes @ 0xE0002FE0)ROMTbl 0 [2]: FFF03000, CID: B105E00D, PID: 002BB003 FPB -- CPU_ReadMem(16 bytes @ 0xE0000FF0) -- CPU_ReadMem(16 bytes @ 0xE0000FE0)ROMTbl 0 [3]: FFF01000, CID: B105E00D, PID: 003BB001 ITM -- CPU_ReadMem(16 bytes @ 0xE00FF010) -- CPU_ReadMem(16 bytes @ 0xE0040FF0) -- CPU_ReadMem(16 bytes @ 0xE0040FE0)ROMTbl 0 [4]: FFF41000, CID: B105900D, PID: 000BB9A1 TPIU -- CPU_ReadMem(16 bytes @ 0xE0041FF0)
 -- CPU_ReadMem(16 bytes @ 0xE0041FE0)ROMTbl 0 [5]: FFF42000, CID: B105900D, PID: 000BB925 ETM >0x0D TIF> >0x21 TIF>  returns 0x2BA01477 (0149ms, 0322ms total)
TF9C0 000:371 JLINK_GetDLLVersion()  returns 61009 (0000ms, 0322ms total)
TF9C0 000:371 JLINK_CORE_GetFound()  returns 0xE0000FF (0000ms, 0322ms total)
TF9C0 000:371 JLINK_GetDebugInfo(0x100) -- Value=0xE00FF000  returns 0x00 (0000ms, 0322ms total)
TF9C0 000:372 JLINK_GetDebugInfo(0x100) -- Value=0xE00FF000  returns 0x00 (0000ms, 0322ms total)
TF9C0 000:372 JLINK_GetDebugInfo(0x101) -- Value=0xE0041000  returns 0x00 (0000ms, 0322ms total)
TF9C0 000:372 JLINK_GetDebugInfo(0x102) -- Value=0x00000000  returns 0x00 (0000ms, 0322ms total)
TF9C0 000:372 JLINK_GetDebugInfo(0x103) -- Value=0xE0040000  returns 0x00 (0000ms, 0322ms total)
TF9C0 000:372 JLINK_GetDebugInfo(0x104) -- Value=0xE0000000  returns 0x00 (0000ms, 0322ms total)
TF9C0 000:372 JLINK_GetDebugInfo(0x105) -- Value=0xE0001000  returns 0x00 (0000ms, 0322ms total)
TF9C0 000:372 JLINK_GetDebugInfo(0x106) -- Value=0xE0002000  returns 0x00 (0000ms, 0322ms total)
TF9C0 000:372 JLINK_GetDebugInfo(0x107) -- Value=0xE000E000  returns 0x00 (0000ms, 0322ms total)
TF9C0 000:372 JLINK_GetDebugInfo(0x10C) -- Value=0xE000EDF0  returns 0x00 (0000ms, 0322ms total)
TF9C0 000:372 JLINK_ReadMemU32(0xE000EF40, 0x0001 Items, ...) -- CPU is running -- CPU_ReadMem(4 bytes @ 0xE000EF40) - Data: 21 00 11 10  returns 0x01 (0001ms, 0323ms total)
TF9C0 000:373 JLINK_ReadMemU32(0xE000EF44, 0x0001 Items, ...) -- CPU is running -- CPU_ReadMem(4 bytes @ 0xE000EF44) - Data: 11 00 00 11  returns 0x01 (0001ms, 0324ms total)
TF9C0 000:374 JLINK_ReadMemU32(0xE000ED00, 0x0001 Items, ...) -- CPU is running -- CPU_ReadMem(4 bytes @ 0xE000ED00) - Data: 41 C2 0F 41  returns 0x01 (0001ms, 0325ms total)
TF9C0 000:375 JLINK_SetResetType(JLINKARM_RESET_TYPE_NORMAL)  returns JLINKARM_RESET_TYPE_NORMAL (0000ms, 0325ms total)
TF9C0 000:375 JLINK_Reset() -- CPU is running -- CPU_WriteMem(4 bytes @ 0xE000EDF0) -- CPU is running -- CPU_WriteMem(4 bytes @ 0xE000EDFC) >0x35 TIF> -- CPU is running -- CPU_WriteMem(4 bytes @ 0xE000ED0C) -- CPU is running -- CPU_ReadMem(4 bytes @ 0xE000EDF0) -- CPU is running -- CPU_ReadMem(4 bytes @ 0xE000EDF0) -- CPU is running -- CPU_WriteMem(4 bytes @ 0xE000EDF0) -- CPU is running -- CPU_WriteMem(4 bytes @ 0xE000EDFC) -- CPU is running -- CPU_ReadMem(4 bytes @ 0xE000EDF0)
 -- CPU_WriteMem(4 bytes @ 0xE0002000) -- CPU_ReadMem(4 bytes @ 0xE000EDFC) -- CPU_ReadMem(4 bytes @ 0xE0001000) (0023ms, 0348ms total)
TF9C0 000:398 JLINK_Halt()  returns 0x00 (0000ms, 0348ms total)
TF9C0 000:398 JLINK_IsHalted()  returns TRUE (0000ms, 0348ms total)
TF9C0 000:398 JLINK_ReadMemU32(0xE000EDF0, 0x0001 Items, ...) -- CPU_ReadMem(4 bytes @ 0xE000EDF0) - Data: 03 00 03 00  returns 0x01 (0001ms, 0349ms total)
TF9C0 000:399 JLINK_WriteU32(0xE000EDF0, 0xA05F0003) -- CPU_WriteMem(4 bytes @ 0xE000EDF0)  returns 0x00 (0001ms, 0350ms total)
TF9C0 000:400 JLINK_WriteU32(0xE000EDFC, 0x01000000) -- CPU_WriteMem(4 bytes @ 0xE000EDFC)  returns 0x00 (0001ms, 0351ms total)
TF9C0 000:406 JLINK_GetHWStatus(...)  returns 0x00 (0001ms, 0352ms total)
TF9C0 000:411 JLINK_GetNumBPUnits(Type = 0xFFFFFF00)  returns 0x06 (0000ms, 0352ms total)
TF9C0 000:411 JLINK_GetNumBPUnits(Type = 0xF0)  returns 0x2000 (0000ms, 0352ms total)
TF9C0 000:411 JLINK_GetNumWPUnits()  returns 0x04 (0000ms, 0352ms total)
TF9C0 000:415 JLINK_GetSpeed()  returns 0xFA0 (0000ms, 0352ms total)
TF9C0 000:417 JLINK_ReadMemU32(0xE000E004, 0x0001 Items, ...) -- CPU_ReadMem(4 bytes @ 0xE000E004) - Data: 02 00 00 00  returns 0x01 (0001ms, 0353ms total)
TF9C0 000:418 JLINK_ReadMemU32(0xE000E004, 0x0001 Items, ...) -- CPU_ReadMem(4 bytes @ 0xE000E004) - Data: 02 00 00 00  returns 0x01 (0001ms, 0354ms total)
TF9C0 000:419 JLINK_WriteMem(0xE0001000, 0x001C Bytes, ...) - Data: 01 00 00 00 00 00 00 00 00 00 00 00 00 00 00 00 ... -- CPU_WriteMem(28 bytes @ 0xE0001000)  returns 0x1C (0001ms, 0355ms total)
TF9C0 000:420 JLINK_ReadMem (0xE0001000, 0x001C Bytes, ...) -- CPU_ReadMem(28 bytes @ 0xE0001000) - Data: 01 00 00 40 00 00 00 00 00 00 00 00 00 00 00 00 ...  returns 0x00 (0001ms, 0356ms total)
TF9C0 000:421 JLINK_Halt()  returns 0x00 (0000ms, 0356ms total)
TF9C0 000:421 JLINK_IsHalted()  returns TRUE (0000ms, 0356ms total)
TF9C0 000:423 JLINK_WriteMem(0x20000000, 0x0198 Bytes, ...) - Data: 00 BE 0A E0 0D 78 2D 06 68 40 08 24 40 00 00 D3 ... -- CPU_WriteMem(408 bytes @ 0x20000000)  returns 0x198 (0002ms, 0358ms total)
TF9C0 000:425 JLINK_WriteReg(R0, 0x08000000)  returns 0x00 (0000ms, 0358ms total)
TF9C0 000:425 JLINK_WriteReg(R1, 0x0ABA9500)  returns 0x00 (0000ms, 0358ms total)
TF9C0 000:425 JLINK_WriteReg(R2, 0x00000001)  returns 0x00 (0000ms, 0358ms total)
TF9C0 000:425 JLINK_WriteReg(R3, 0x00000000)  returns 0x00 (0000ms, 0358ms total)
TF9C0 000:425 JLINK_WriteReg(R4, 0x00000000)  returns 0x00 (0000ms, 0358ms total)
TF9C0 000:425 JLINK_WriteReg(R5, 0x00000000)  returns 0x00 (0000ms, 0358ms total)
TF9C0 000:425 JLINK_WriteReg(R6, 0x00000000)  returns 0x00 (0000ms, 0358ms total)
TF9C0 000:425 JLINK_WriteReg(R7, 0x00000000)  returns 0x00 (0000ms, 0358ms total)
TF9C0 000:425 JLINK_WriteReg(R8, 0x00000000)  returns 0x00 (0000ms, 0358ms total)
TF9C0 000:425 JLINK_WriteReg(R9, 0x20000194)  returns 0x00 (0000ms, 0358ms total)
TF9C0 000:425 JLINK_WriteReg(R10, 0x00000000)  returns 0x00 (0000ms, 0358ms total)
TF9C0 000:425 JLINK_WriteReg(R11, 0x00000000)  returns 0x00 (0000ms, 0358ms total)
TF9C0 000:425 JLINK_WriteReg(R12, 0x00000000)  returns 0x00 (0000ms, 0358ms total)
TF9C0 000:425 JLINK_WriteReg(R13 (SP), 0x20001000)  returns 0x00 (0000ms, 0358ms total)
TF9C0 000:425 JLINK_WriteReg(R14, 0x20000001)  returns 0x00 (0000ms, 0358ms total)
TF9C0 000:425 JLINK_WriteReg(R15 (PC), 0x2000005E)  returns 0x00 (0000ms, 0358ms total)
TF9C0 000:425 JLINK_WriteReg(XPSR, 0x01000000)  returns 0x00 (0000ms, 0358ms total)
TF9C0 000:425 JLINK_WriteReg(MSP, 0x20001000)  returns 0x00 (0000ms, 0358ms total)
TF9C0 000:425 JLINK_WriteReg(PSP, 0x20001000)  returns 0x00 (0000ms, 0358ms total)
TF9C0 000:425 JLINK_WriteReg(CFBP, 0x00000000)  returns 0x00 (0000ms, 0358ms total)
TF9C0 000:425 JLINK_SetBPEx(Addr = 0x20000000, Type = 0xFFFFFFF2) -- CPU_ReadMem(2 bytes @ 0x20000000)  returns 0x00000001 (0001ms, 0359ms total)
TF9C0 000:426 JLINK_Go() -- CPU_WriteMem(2 bytes @ 0x20000000) -- CPU_ReadMem(4 bytes @ 0xE0001000) -- CPU_WriteMem(4 bytes @ 0xE0002008) -- CPU_WriteMem(4 bytes @ 0xE000200C) -- CPU_WriteMem(4 bytes @ 0xE0002010) -- CPU_WriteMem(4 bytes @ 0xE0002014) -- CPU_WriteMem(4 bytes @ 0xE0002018) -- CPU_WriteMem(4 bytes @ 0xE000201C) -- CPU_WriteMem(4 bytes @ 0xE0001004) (0007ms, 0366ms total)
TF9C0 000:433 JLINK_IsHalted() -- CPU_ReadMem(2 bytes @ 0x20000000)  returns TRUE (0004ms, 0370ms total)
TF9C0 000:437 JLINK_ReadReg(R15 (PC))  returns 0x20000000 (0000ms, 0366ms total)
TF9C0 000:437 JLINK_ClrBPEx(BPHandle = 0x00000001)  returns 0x00 (0000ms, 0366ms total)
TF9C0 000:437 JLINK_ReadReg(R0)  returns 0x00000000 (0000ms, 0366ms total)
TF9C0 000:437 JLINK_WriteReg(R0, 0x08000000)  returns 0x00 (0000ms, 0366ms total)
TF9C0 000:437 JLINK_WriteReg(R1, 0x00004000)  returns 0x00 (0000ms, 0366ms total)
TF9C0 000:437 JLINK_WriteReg(R2, 0x000000FF)  returns 0x00 (0000ms, 0366ms total)
TF9C0 000:437 JLINK_WriteReg(R3, 0x00000000)  returns 0x00 (0000ms, 0366ms total)
TF9C0 000:437 JLINK_WriteReg(R4, 0x00000000)  returns 0x00 (0000ms, 0366ms total)
TF9C0 000:437 JLINK_WriteReg(R5, 0x00000000)  returns 0x00 (0000ms, 0366ms total)
TF9C0 000:437 JLINK_WriteReg(R6, 0x00000000)  returns 0x00 (0000ms, 0366ms total)
TF9C0 000:437 JLINK_WriteReg(R7, 0x00000000)  returns 0x00 (0000ms, 0366ms total)
TF9C0 000:437 JLINK_WriteReg(R8, 0x00000000)  returns 0x00 (0000ms, 0366ms total)
TF9C0 000:437 JLINK_WriteReg(R9, 0x20000194)  returns 0x00 (0000ms, 0366ms total)
TF9C0 000:437 JLINK_WriteReg(R10, 0x00000000)  returns 0x00 (0000ms, 0366ms total)
TF9C0 000:437 JLINK_WriteReg(R11, 0x00000000)  returns 0x00 (0000ms, 0366ms total)
TF9C0 000:437 JLINK_WriteReg(R12, 0x00000000)  returns 0x00 (0000ms, 0366ms total)
TF9C0 000:437 JLINK_WriteReg(R13 (SP), 0x20001000)  returns 0x00 (0000ms, 0366ms total)
TF9C0 000:437 JLINK_WriteReg(R14, 0x20000001)  returns 0x00 (0000ms, 0366ms total)
TF9C0 000:437 JLINK_WriteReg(R15 (PC), 0x20000020)  returns 0x00 (0000ms, 0366ms total)
TF9C0 000:437 JLINK_WriteReg(XPSR, 0x01000000)  returns 0x00 (0000ms, 0366ms total)
TF9C0 000:437 JLINK_WriteReg(MSP, 0x20001000)  returns 0x00 (0000ms, 0366ms total)
TF9C0 000:437 JLINK_WriteReg(PSP, 0x20001000)  returns 0x00 (0000ms, 0366ms total)
TF9C0 000:437 JLINK_WriteReg(CFBP, 0x00000000)  returns 0x00 (0000ms, 0366ms total)
TF9C0 000:437 JLINK_SetBPEx(Addr = 0x20000000, Type = 0xFFFFFFF2)  returns 0x00000002 (0000ms, 0366ms total)
TF9C0 000:437 JLINK_Go() -- CPU_ReadMem(4 bytes @ 0xE0001000) (0003ms, 0369ms total)
TF9C0 000:440 JLINK_IsHalted() -- CPU_ReadMem(2 bytes @ 0x20000000)  returns TRUE (0004ms, 0373ms total)
TF9C0 000:444 JLINK_ReadReg(R15 (PC))  returns 0x20000000 (0000ms, 0369ms total)
TF9C0 000:444 JLINK_ClrBPEx(BPHandle = 0x00000002)  returns 0x00 (0000ms, 0369ms total)
TF9C0 000:444 JLINK_ReadReg(R0)  returns 0x00000001 (0000ms, 0369ms total)
TF9C0 000:444 JLINK_WriteReg(R0, 0x08000000)  returns 0x00 (0000ms, 0369ms total)
TF9C0 000:444 JLINK_WriteReg(R1, 0x00004000)  returns 0x00 (0000ms, 0369ms total)
TF9C0 000:444 JLINK_WriteReg(R2, 0x000000FF)  returns 0x00 (0000ms, 0369ms total)
TF9C0 000:444 JLINK_WriteReg(R3, 0x00000000)  returns 0x00 (0000ms, 0369ms total)
TF9C0 000:444 JLINK_WriteReg(R4, 0x00000000)  returns 0x00 (0000ms, 0369ms total)
TF9C0 000:444 JLINK_WriteReg(R5, 0x00000000)  returns 0x00 (0000ms, 0369ms total)
TF9C0 000:444 JLINK_WriteReg(R6, 0x00000000)  returns 0x00 (0000ms, 0369ms total)
TF9C0 000:444 JLINK_WriteReg(R7, 0x00000000)  returns 0x00 (0000ms, 0369ms total)
TF9C0 000:444 JLINK_WriteReg(R8, 0x00000000)  returns 0x00 (0000ms, 0369ms total)
TF9C0 000:444 JLINK_WriteReg(R9, 0x20000194)  returns 0x00 (0000ms, 0369ms total)
TF9C0 000:444 JLINK_WriteReg(R10, 0x00000000)  returns 0x00 (0000ms, 0369ms total)
TF9C0 000:444 JLINK_WriteReg(R11, 0x00000000)  returns 0x00 (0000ms, 0369ms total)
TF9C0 000:444 JLINK_WriteReg(R12, 0x00000000)  returns 0x00 (0000ms, 0369ms total)
TF9C0 000:444 JLINK_WriteReg(R13 (SP), 0x20001000)  returns 0x00 (0000ms, 0369ms total)
TF9C0 000:444 JLINK_WriteReg(R14, 0x20000001)  returns 0x00 (0000ms, 0369ms total)
TF9C0 000:444 JLINK_WriteReg(R15 (PC), 0x200000D4)  returns 0x00 (0000ms, 0369ms total)
TF9C0 000:444 JLINK_WriteReg(XPSR, 0x01000000)  returns 0x00 (0000ms, 0369ms total)
TF9C0 000:444 JLINK_WriteReg(MSP, 0x20001000)  returns 0x00 (0000ms, 0369ms total)
TF9C0 000:444 JLINK_WriteReg(PSP, 0x20001000)  returns 0x00 (0000ms, 0369ms total)
TF9C0 000:444 JLINK_WriteReg(CFBP, 0x00000000)  returns 0x00 (0000ms, 0369ms total)
TF9C0 000:444 JLINK_SetBPEx(Addr = 0x20000000, Type = 0xFFFFFFF2)  returns 0x00000003 (0000ms, 0369ms total)
TF9C0 000:444 JLINK_Go() -- CPU_ReadMem(4 bytes @ 0xE0001000) (0003ms, 0372ms total)
TF9C0 000:447 JLINK_IsHalted()  returns FALSE (0001ms, 0373ms total)
TF9C0 000:466 JLINK_IsHalted()  returns FALSE (0001ms, 0373ms total)
TF9C0 000:469 JLINK_IsHalted()  returns FALSE (0001ms, 0373ms total)
TF9C0 000:471 JLINK_IsHalted()  returns FALSE (0001ms, 0373ms total)
TF9C0 000:473 JLINK_IsHalted()  returns FALSE (0001ms, 0373ms total)
TF9C0 000:475 JLINK_IsHalted()  returns FALSE (0001ms, 0373ms total)
TF9C0 000:477 JLINK_IsHalted()  returns FALSE (0001ms, 0373ms total)
TF9C0 000:479 JLINK_IsHalted()  returns FALSE (0001ms, 0373ms total)
TF9C0 000:481 JLINK_IsHalted()  returns FALSE (0001ms, 0373ms total)
TF9C0 000:483 JLINK_IsHalted()  returns FALSE (0001ms, 0373ms total)
TF9C0 000:486 JLINK_IsHalted()  returns FALSE (0001ms, 0373ms total)
TF9C0 000:488 JLINK_IsHalted()  returns FALSE (0001ms, 0373ms total)
TF9C0 000:490 JLINK_IsHalted()  returns FALSE (0001ms, 0373ms total)
TF9C0 000:492 JLINK_IsHalted()  returns FALSE (0001ms, 0373ms total)
TF9C0 000:494 JLINK_IsHalted()  returns FALSE (0001ms, 0373ms total)
TF9C0 000:496 JLINK_IsHalted()  returns FALSE (0001ms, 0373ms total)
TF9C0 000:498 JLINK_IsHalted()  returns FALSE (0001ms, 0373ms total)
TF9C0 000:500 JLINK_IsHalted()  returns FALSE (0001ms, 0373ms total)
TF9C0 000:502 JLINK_IsHalted()  returns FALSE (0001ms, 0373ms total)
TF9C0 000:504 JLINK_IsHalted()  returns FALSE (0001ms, 0373ms total)
TF9C0 000:509 JLINK_IsHalted()  returns FALSE (0001ms, 0373ms total)
TF9C0 000:511 JLINK_IsHalted()  returns FALSE (0001ms, 0373ms total)
TF9C0 000:519 JLINK_IsHalted()  returns FALSE (0001ms, 0373ms total)
TF9C0 000:524 JLINK_IsHalted()  returns FALSE (0001ms, 0373ms total)
TF9C0 000:526 JLINK_IsHalted()  returns FALSE (0001ms, 0374ms total)
TF9C0 000:528 JLINK_IsHalted()  returns FALSE (0001ms, 0374ms total)
TF9C0 000:536 JLINK_IsHalted()  returns FALSE (0001ms, 0374ms total)
TF9C0 000:559 JLINK_IsHalted()  returns FALSE (0001ms, 0374ms total)
TF9C0 000:567 JLINK_IsHalted()  returns FALSE (0001ms, 0374ms total)
TF9C0 000:571 JLINK_IsHalted()  returns FALSE (0001ms, 0374ms total)
TF9C0 000:573 JLINK_IsHalted()  returns FALSE (0001ms, 0374ms total)
TF9C0 000:575 JLINK_IsHalted()  returns FALSE (0000ms, 0373ms total)
TF9C0 000:576 JLINK_IsHalted()  returns FALSE (0000ms, 0373ms total)
TF9C0 000:581 JLINK_IsHalted()  returns FALSE (0001ms, 0374ms total)
TF9C0 000:583 JLINK_IsHalted()  returns FALSE (0001ms, 0374ms total)
TF9C0 000:586 JLINK_IsHalted()  returns FALSE (0001ms, 0374ms total)
TF9C0 000:588 JLINK_IsHalted()  returns FALSE (0001ms, 0374ms total)
TF9C0 000:590 JLINK_IsHalted()  returns FALSE (0001ms, 0374ms total)
TF9C0 000:592 JLINK_IsHalted()  returns FALSE (0000ms, 0373ms total)
TF9C0 000:593 JLINK_IsHalted()  returns FALSE (0001ms, 0374ms total)
TF9C0 000:597 JLINK_IsHalted()  returns FALSE (0001ms, 0374ms total)
TF9C0 000:599 JLINK_IsHalted()  returns FALSE (0001ms, 0374ms total)
TF9C0 000:601 JLINK_IsHalted()  returns FALSE (0001ms, 0374ms total)
TF9C0 000:604 JLINK_IsHalted()  returns FALSE (0001ms, 0374ms total)
TF9C0 000:606 JLINK_IsHalted()  returns FALSE (0001ms, 0374ms total)
TF9C0 000:608 JLINK_IsHalted()  returns FALSE (0001ms, 0374ms total)
TF9C0 000:613 JLINK_IsHalted()  returns FALSE (0001ms, 0374ms total)
TF9C0 000:615 JLINK_IsHalted()  returns FALSE (0001ms, 0374ms total)
TF9C0 000:617 JLINK_IsHalted()  returns FALSE (0001ms, 0374ms total)
TF9C0 000:620 JLINK_IsHalted()  returns FALSE (0001ms, 0374ms total)
TF9C0 000:622 JLINK_IsHalted()  returns FALSE (0001ms, 0374ms total)
TF9C0 000:624 JLINK_IsHalted()  returns FALSE (0001ms, 0374ms total)
TF9C0 000:628 JLINK_IsHalted()  returns FALSE (0001ms, 0374ms total)
TF9C0 000:630 JLINK_IsHalted()  returns FALSE (0001ms, 0374ms total)
TF9C0 000:632 JLINK_IsHalted()  returns FALSE (0001ms, 0374ms total)
TF9C0 000:635 JLINK_IsHalted()  returns FALSE (0001ms, 0374ms total)
TF9C0 000:637 JLINK_IsHalted()  returns FALSE (0001ms, 0374ms total)
TF9C0 000:639 JLINK_IsHalted()  returns FALSE (0001ms, 0374ms total)
TF9C0 000:641 JLINK_IsHalted()  returns FALSE (0001ms, 0374ms total)
TF9C0 000:645 JLINK_IsHalted()  returns FALSE (0001ms, 0374ms total)
TF9C0 000:647 JLINK_IsHalted()  returns FALSE (0001ms, 0374ms total)
TF9C0 000:649 JLINK_IsHalted()  returns FALSE (0001ms, 0374ms total)
TF9C0 000:652 JLINK_IsHalted()  returns FALSE (0001ms, 0374ms total)
TF9C0 000:654 JLINK_IsHalted()  returns FALSE (0001ms, 0374ms total)
TF9C0 000:660 JLINK_IsHalted()  returns FALSE (0001ms, 0374ms total)
TF9C0 000:662 JLINK_IsHalted()  returns FALSE (0001ms, 0374ms total)
TF9C0 000:664 JLINK_IsHalted()  returns FALSE (0001ms, 0374ms total)
TF9C0 000:667 JLINK_IsHalted()  returns FALSE (0001ms, 0374ms total)
TF9C0 000:669 JLINK_IsHalted()  returns FALSE (0001ms, 0374ms total)
TF9C0 000:674 JLINK_IsHalted()  returns FALSE (0001ms, 0374ms total)
TF9C0 000:676 JLINK_IsHalted()  returns FALSE (0001ms, 0375ms total)
TF9C0 000:678 JLINK_IsHalted()  returns FALSE (0001ms, 0375ms total)
TF9C0 000:680 JLINK_IsHalted()  returns FALSE (0001ms, 0375ms total)
TF9C0 000:683 JLINK_IsHalted()  returns FALSE (0001ms, 0375ms total)
TF9C0 000:685 JLINK_IsHalted()  returns FALSE (0001ms, 0375ms total)
TF9C0 000:687 JLINK_IsHalted()  returns FALSE (0001ms, 0375ms total)
TF9C0 000:692 JLINK_IsHalted()  returns FALSE (0001ms, 0375ms total)
TF9C0 000:694 JLINK_IsHalted()  returns FALSE (0001ms, 0375ms total)
TF9C0 000:696 JLINK_IsHalted()  returns FALSE (0001ms, 0375ms total)
TF9C0 000:698 JLINK_IsHalted()  returns FALSE (0001ms, 0375ms total)
TF9C0 000:700 JLINK_IsHalted()  returns FALSE (0001ms, 0375ms total)
TF9C0 000:702 JLINK_IsHalted()  returns FALSE (0001ms, 0375ms total)
TF9C0 000:704 JLINK_IsHalted()  returns FALSE (0001ms, 0375ms total)
TF9C0 000:706 JLINK_IsHalted()  returns FALSE (0001ms, 0375ms total)
TF9C0 000:708 JLINK_IsHalted()  returns FALSE (0001ms, 0375ms total)
TF9C0 000:711 JLINK_IsHalted()  returns FALSE (0001ms, 0375ms total)
TF9C0 000:713 JLINK_IsHalted()  returns FALSE (0001ms, 0375ms total)
TF9C0 000:715 JLINK_IsHalted()  returns FALSE (0001ms, 0375ms total)
TF9C0 000:717 JLINK_IsHalted()  returns FALSE (0001ms, 0375ms total)
TF9C0 000:720 JLINK_IsHalted()  returns FALSE (0001ms, 0375ms total)
TF9C0 000:722 JLINK_IsHalted()  returns FALSE (0001ms, 0375ms total)
TF9C0 000:724 JLINK_IsHalted()  returns FALSE (0001ms, 0375ms total)
TF9C0 000:726 JLINK_IsHalted()  returns FALSE (0001ms, 0375ms total)
TF9C0 000:728 JLINK_IsHalted()  returns FALSE (0001ms, 0375ms total)
TF9C0 000:730 JLINK_IsHalted()  returns FALSE (0001ms, 0375ms total)
TF9C0 000:732 JLINK_IsHalted()  returns FALSE (0001ms, 0375ms total)
TF9C0 000:735 JLINK_IsHalted()  returns FALSE (0001ms, 0375ms total)
TF9C0 000:737 JLINK_IsHalted()  returns FALSE (0001ms, 0375ms total)
TF9C0 000:739 JLINK_IsHalted()  returns FALSE (0001ms, 0375ms total)
TF9C0 000:741 JLINK_IsHalted()  returns FALSE (0001ms, 0375ms total)
TF9C0 000:743 JLINK_IsHalted()  returns FALSE (0001ms, 0375ms total)
TF9C0 000:745 JLINK_IsHalted()  returns FALSE (0001ms, 0375ms total)
TF9C0 000:747 JLINK_IsHalted()  returns FALSE (0001ms, 0375ms total)
TF9C0 000:749 JLINK_IsHalted()  returns FALSE (0001ms, 0375ms total)
TF9C0 000:751 JLINK_IsHalted()  returns FALSE (0001ms, 0375ms total)
TF9C0 000:753 JLINK_IsHalted()  returns FALSE (0001ms, 0375ms total)
TF9C0 000:756 JLINK_IsHalted()  returns FALSE (0001ms, 0375ms total)
TF9C0 000:758 JLINK_IsHalted()  returns FALSE (0001ms, 0375ms total)
TF9C0 000:760 JLINK_IsHalted()  returns FALSE (0001ms, 0375ms total)
TF9C0 000:762 JLINK_IsHalted()  returns FALSE (0001ms, 0375ms total)
TF9C0 000:765 JLINK_IsHalted()  returns FALSE (0001ms, 0375ms total)
TF9C0 000:767 JLINK_IsHalted()  returns FALSE (0001ms, 0375ms total)
TF9C0 000:769 JLINK_IsHalted()  returns FALSE (0001ms, 0375ms total)
TF9C0 000:771 JLINK_IsHalted()  returns FALSE (0001ms, 0375ms total)
TF9C0 000:773 JLINK_IsHalted()  returns FALSE (0001ms, 0375ms total)
TF9C0 000:775 JLINK_IsHalted()  returns FALSE (0001ms, 0375ms total)
TF9C0 000:777 JLINK_IsHalted()  returns FALSE (0001ms, 0375ms total)
TF9C0 000:779 JLINK_IsHalted()  returns FALSE (0001ms, 0375ms total)
TF9C0 000:781 JLINK_IsHalted()  returns FALSE (0001ms, 0375ms total)
TF9C0 000:783 JLINK_IsHalted()  returns FALSE (0001ms, 0375ms total)
TF9C0 000:786 JLINK_IsHalted()  returns FALSE (0001ms, 0375ms total)
TF9C0 000:788 JLINK_IsHalted()  returns FALSE (0001ms, 0375ms total)
TF9C0 000:790 JLINK_IsHalted()  returns FALSE (0001ms, 0375ms total)
TF9C0 000:792 JLINK_IsHalted()  returns FALSE (0001ms, 0375ms total)
TF9C0 000:794 JLINK_IsHalted()  returns FALSE (0001ms, 0375ms total)
TF9C0 000:799 JLINK_IsHalted()  returns FALSE (0001ms, 0375ms total)
TF9C0 000:801 JLINK_IsHalted()  returns FALSE (0001ms, 0375ms total)
TF9C0 000:803 JLINK_IsHalted()  returns FALSE (0001ms, 0375ms total)
TF9C0 000:805 JLINK_IsHalted()  returns FALSE (0001ms, 0375ms total)
TF9C0 000:807 JLINK_IsHalted() -- CPU_ReadMem(2 bytes @ 0x20000000)  returns TRUE (0004ms, 0378ms total)
TF9C0 000:811 JLINK_ReadReg(R15 (PC))  returns 0x20000000 (0000ms, 0374ms total)
TF9C0 000:811 JLINK_ClrBPEx(BPHandle = 0x00000003)  returns 0x00 (0000ms, 0374ms total)
TF9C0 000:811 JLINK_ReadReg(R0)  returns 0x00000000 (0000ms, 0374ms total)
TF9C0 000:811 JLINK_WriteReg(R0, 0x00000001)  returns 0x00 (0000ms, 0374ms total)
TF9C0 000:811 JLINK_WriteReg(R1, 0x00004000)  returns 0x00 (0000ms, 0374ms total)
TF9C0 000:811 JLINK_WriteReg(R2, 0x000000FF)  returns 0x00 (0000ms, 0374ms total)
TF9C0 000:811 JLINK_WriteReg(R3, 0x00000000)  returns 0x00 (0000ms, 0374ms total)
TF9C0 000:811 JLINK_WriteReg(R4, 0x00000000)  returns 0x00 (0000ms, 0374ms total)
TF9C0 000:811 JLINK_WriteReg(R5, 0x00000000)  returns 0x00 (0000ms, 0374ms total)
TF9C0 000:811 JLINK_WriteReg(R6, 0x00000000)  returns 0x00 (0000ms, 0374ms total)
TF9C0 000:811 JLINK_WriteReg(R7, 0x00000000)  returns 0x00 (0000ms, 0374ms total)
TF9C0 000:811 JLINK_WriteReg(R8, 0x00000000)  returns 0x00 (0000ms, 0374ms total)
TF9C0 000:811 JLINK_WriteReg(R9, 0x20000194)  returns 0x00 (0000ms, 0374ms total)
TF9C0 000:811 JLINK_WriteReg(R10, 0x00000000)  returns 0x00 (0000ms, 0374ms total)
TF9C0 000:811 JLINK_WriteReg(R11, 0x00000000)  returns 0x00 (0000ms, 0374ms total)
TF9C0 000:811 JLINK_WriteReg(R12, 0x00000000)  returns 0x00 (0000ms, 0374ms total)
TF9C0 000:811 JLINK_WriteReg(R13 (SP), 0x20001000)  returns 0x00 (0000ms, 0374ms total)
TF9C0 000:811 JLINK_WriteReg(R14, 0x20000001)  returns 0x00 (0000ms, 0374ms total)
TF9C0 000:811 JLINK_WriteReg(R15 (PC), 0x2000008C)  returns 0x00 (0000ms, 0374ms total)
TF9C0 000:811 JLINK_WriteReg(XPSR, 0x01000000)  returns 0x00 (0000ms, 0374ms total)
TF9C0 000:811 JLINK_WriteReg(MSP, 0x20001000)  returns 0x00 (0000ms, 0374ms total)
TF9C0 000:811 JLINK_WriteReg(PSP, 0x20001000)  returns 0x00 (0000ms, 0374ms total)
TF9C0 000:811 JLINK_WriteReg(CFBP, 0x00000000)  returns 0x00 (0000ms, 0374ms total)
TF9C0 000:811 JLINK_SetBPEx(Addr = 0x20000000, Type = 0xFFFFFFF2)  returns 0x00000004 (0000ms, 0374ms total)
TF9C0 000:811 JLINK_Go() -- CPU_ReadMem(4 bytes @ 0xE0001000) (0003ms, 0377ms total)
TF9C0 000:814 JLINK_IsHalted() -- CPU_ReadMem(2 bytes @ 0x20000000)  returns TRUE (0004ms, 0381ms total)
TF9C0 000:818 JLINK_ReadReg(R15 (PC))  returns 0x20000000 (0000ms, 0377ms total)
TF9C0 000:818 JLINK_ClrBPEx(BPHandle = 0x00000004)  returns 0x00 (0000ms, 0377ms total)
TF9C0 000:818 JLINK_ReadReg(R0)  returns 0x00000000 (0000ms, 0377ms total)
TF9C0 000:876 JLINK_WriteMem(0x20000000, 0x0198 Bytes, ...) - Data: 00 BE 0A E0 0D 78 2D 06 68 40 08 24 40 00 00 D3 ... -- CPU_WriteMem(408 bytes @ 0x20000000)  returns 0x198 (0003ms, 0380ms total)
TF9C0 000:879 JLINK_WriteReg(R0, 0x08000000)  returns 0x00 (0000ms, 0380ms total)
TF9C0 000:879 JLINK_WriteReg(R1, 0x0ABA9500)  returns 0x00 (0000ms, 0380ms total)
TF9C0 000:879 JLINK_WriteReg(R2, 0x00000002)  returns 0x00 (0000ms, 0380ms total)
TF9C0 000:879 JLINK_WriteReg(R3, 0x00000000)  returns 0x00 (0000ms, 0380ms total)
TF9C0 000:879 JLINK_WriteReg(R4, 0x00000000)  returns 0x00 (0000ms, 0380ms total)
TF9C0 000:879 JLINK_WriteReg(R5, 0x00000000)  returns 0x00 (0000ms, 0380ms total)
TF9C0 000:879 JLINK_WriteReg(R6, 0x00000000)  returns 0x00 (0000ms, 0380ms total)
TF9C0 000:879 JLINK_WriteReg(R7, 0x00000000)  returns 0x00 (0000ms, 0380ms total)
TF9C0 000:879 JLINK_WriteReg(R8, 0x00000000)  returns 0x00 (0000ms, 0380ms total)
TF9C0 000:879 JLINK_WriteReg(R9, 0x20000194)  returns 0x00 (0000ms, 0380ms total)
TF9C0 000:879 JLINK_WriteReg(R10, 0x00000000)  returns 0x00 (0000ms, 0380ms total)
TF9C0 000:879 JLINK_WriteReg(R11, 0x00000000)  returns 0x00 (0000ms, 0380ms total)
TF9C0 000:879 JLINK_WriteReg(R12, 0x00000000)  returns 0x00 (0000ms, 0380ms total)
TF9C0 000:879 JLINK_WriteReg(R13 (SP), 0x20001000)  returns 0x00 (0000ms, 0380ms total)
TF9C0 000:879 JLINK_WriteReg(R14, 0x20000001)  returns 0x00 (0000ms, 0380ms total)
TF9C0 000:879 JLINK_WriteReg(R15 (PC), 0x2000005E)  returns 0x00 (0000ms, 0380ms total)
TF9C0 000:879 JLINK_WriteReg(XPSR, 0x01000000)  returns 0x00 (0000ms, 0380ms total)
TF9C0 000:879 JLINK_WriteReg(MSP, 0x20001000)  returns 0x00 (0000ms, 0380ms total)
TF9C0 000:879 JLINK_WriteReg(PSP, 0x20001000)  returns 0x00 (0000ms, 0380ms total)
TF9C0 000:879 JLINK_WriteReg(CFBP, 0x00000000)  returns 0x00 (0000ms, 0380ms total)
TF9C0 000:879 JLINK_SetBPEx(Addr = 0x20000000, Type = 0xFFFFFFF2) -- CPU_ReadMem(2 bytes @ 0x20000000)  returns 0x00000005 (0002ms, 0382ms total)
TF9C0 000:881 JLINK_Go() -- CPU_WriteMem(2 bytes @ 0x20000000) -- CPU_ReadMem(4 bytes @ 0xE0001000) (0004ms, 0386ms total)
TF9C0 000:885 JLINK_IsHalted() -- CPU_ReadMem(2 bytes @ 0x20000000)  returns TRUE (0004ms, 0390ms total)
TF9C0 000:889 JLINK_ReadReg(R15 (PC))  returns 0x20000000 (0000ms, 0386ms total)
TF9C0 000:889 JLINK_ClrBPEx(BPHandle = 0x00000005)  returns 0x00 (0000ms, 0386ms total)
TF9C0 000:889 JLINK_ReadReg(R0)  returns 0x00000000 (0000ms, 0386ms total)
TF9C0 000:889 JLINK_WriteMem(0x20000198, 0x0400 Bytes, ...) - Data: 88 17 00 20 C1 01 00 08 A3 21 00 08 CD 1C 00 08 ... -- CPU_WriteMem(1024 bytes @ 0x20000198)  returns 0x400 (0005ms, 0391ms total)
TF9C0 000:894 JLINK_WriteReg(R0, 0x08000000)  returns 0x00 (0000ms, 0391ms total)
TF9C0 000:894 JLINK_WriteReg(R1, 0x00000400)  returns 0x00 (0000ms, 0391ms total)
TF9C0 000:894 JLINK_WriteReg(R2, 0x20000198)  returns 0x00 (0000ms, 0391ms total)
TF9C0 000:894 JLINK_WriteReg(R3, 0x00000000)  returns 0x00 (0000ms, 0391ms total)
TF9C0 000:894 JLINK_WriteReg(R4, 0x00000000)  returns 0x00 (0000ms, 0391ms total)
TF9C0 000:894 JLINK_WriteReg(R5, 0x00000000)  returns 0x00 (0000ms, 0391ms total)
TF9C0 000:894 JLINK_WriteReg(R6, 0x00000000)  returns 0x00 (0000ms, 0391ms total)
TF9C0 000:894 JLINK_WriteReg(R7, 0x00000000)  returns 0x00 (0000ms, 0391ms total)
TF9C0 000:894 JLINK_WriteReg(R8, 0x00000000)  returns 0x00 (0000ms, 0391ms total)
TF9C0 000:894 JLINK_WriteReg(R9, 0x20000194)  returns 0x00 (0000ms, 0391ms total)
TF9C0 000:894 JLINK_WriteReg(R10, 0x00000000)  returns 0x00 (0000ms, 0391ms total)
TF9C0 000:894 JLINK_WriteReg(R11, 0x00000000)  returns 0x00 (0000ms, 0391ms total)
TF9C0 000:894 JLINK_WriteReg(R12, 0x00000000)  returns 0x00 (0000ms, 0391ms total)
TF9C0 000:894 JLINK_WriteReg(R13 (SP), 0x20001000)  returns 0x00 (0000ms, 0391ms total)
TF9C0 000:894 JLINK_WriteReg(R14, 0x20000001)  returns 0x00 (0000ms, 0391ms total)
TF9C0 000:894 JLINK_WriteReg(R15 (PC), 0x20000120)  returns 0x00 (0000ms, 0391ms total)
TF9C0 000:894 JLINK_WriteReg(XPSR, 0x01000000)  returns 0x00 (0000ms, 0391ms total)
TF9C0 000:894 JLINK_WriteReg(MSP, 0x20001000)  returns 0x00 (0000ms, 0391ms total)
TF9C0 000:894 JLINK_WriteReg(PSP, 0x20001000)  returns 0x00 (0000ms, 0391ms total)
TF9C0 000:894 JLINK_WriteReg(CFBP, 0x00000000)  returns 0x00 (0000ms, 0391ms total)
TF9C0 000:894 JLINK_SetBPEx(Addr = 0x20000000, Type = 0xFFFFFFF2)  returns 0x00000006 (0000ms, 0391ms total)
TF9C0 000:894 JLINK_Go() -- CPU_ReadMem(4 bytes @ 0xE0001000) (0004ms, 0395ms total)
TF9C0 000:898 JLINK_IsHalted()  returns FALSE (0001ms, 0396ms total)
TF9C0 000:934 JLINK_IsHalted() -- CPU_ReadMem(2 bytes @ 0x20000000)  returns TRUE (0004ms, 0399ms total)
TF9C0 000:938 JLINK_ReadReg(R15 (PC))  returns 0x20000000 (0000ms, 0395ms total)
TF9C0 000:938 JLINK_ClrBPEx(BPHandle = 0x00000006)  returns 0x00 (0000ms, 0395ms total)
TF9C0 000:938 JLINK_ReadReg(R0)  returns 0x00000000 (0000ms, 0395ms total)
TF9C0 000:939 JLINK_WriteMem(0x20000198, 0x0400 Bytes, ...) - Data: 00 E0 FF FF 00 00 F0 FF FE E7 00 00 01 48 00 F0 ... -- CPU_WriteMem(1024 bytes @ 0x20000198)  returns 0x400 (0005ms, 0400ms total)
TF9C0 000:944 JLINK_WriteReg(R0, 0x08000400)  returns 0x00 (0000ms, 0400ms total)
TF9C0 000:944 JLINK_WriteReg(R1, 0x00000400)  returns 0x00 (0000ms, 0400ms total)
TF9C0 000:944 JLINK_WriteReg(R2, 0x20000198)  returns 0x00 (0000ms, 0400ms total)
TF9C0 000:944 JLINK_WriteReg(R3, 0x00000000)  returns 0x00 (0000ms, 0400ms total)
TF9C0 000:944 JLINK_WriteReg(R4, 0x00000000)  returns 0x00 (0000ms, 0400ms total)
TF9C0 000:944 JLINK_WriteReg(R5, 0x00000000)  returns 0x00 (0000ms, 0400ms total)
TF9C0 000:944 JLINK_WriteReg(R6, 0x00000000)  returns 0x00 (0000ms, 0400ms total)
TF9C0 000:944 JLINK_WriteReg(R7, 0x00000000)  returns 0x00 (0000ms, 0400ms total)
TF9C0 000:944 JLINK_WriteReg(R8, 0x00000000)  returns 0x00 (0000ms, 0400ms total)
TF9C0 000:944 JLINK_WriteReg(R9, 0x20000194)  returns 0x00 (0000ms, 0400ms total)
TF9C0 000:944 JLINK_WriteReg(R10, 0x00000000)  returns 0x00 (0000ms, 0400ms total)
TF9C0 000:944 JLINK_WriteReg(R11, 0x00000000)  returns 0x00 (0000ms, 0400ms total)
TF9C0 000:944 JLINK_WriteReg(R12, 0x00000000)  returns 0x00 (0000ms, 0400ms total)
TF9C0 000:944 JLINK_WriteReg(R13 (SP), 0x20001000)  returns 0x00 (0000ms, 0400ms total)
TF9C0 000:944 JLINK_WriteReg(R14, 0x20000001)  returns 0x00 (0000ms, 0400ms total)
TF9C0 000:944 JLINK_WriteReg(R15 (PC), 0x20000120)  returns 0x00 (0000ms, 0400ms total)
TF9C0 000:944 JLINK_WriteReg(XPSR, 0x01000000)  returns 0x00 (0000ms, 0400ms total)
TF9C0 000:944 JLINK_WriteReg(MSP, 0x20001000)  returns 0x00 (0000ms, 0400ms total)
TF9C0 000:944 JLINK_WriteReg(PSP, 0x20001000)  returns 0x00 (0000ms, 0400ms total)
TF9C0 000:944 JLINK_WriteReg(CFBP, 0x00000000)  returns 0x00 (0000ms, 0400ms total)
TF9C0 000:944 JLINK_SetBPEx(Addr = 0x20000000, Type = 0xFFFFFFF2)  returns 0x00000007 (0001ms, 0401ms total)
TF9C0 000:945 JLINK_Go() -- CPU_ReadMem(4 bytes @ 0xE0001000) (0002ms, 0403ms total)
TF9C0 000:947 JLINK_IsHalted()  returns FALSE (0001ms, 0404ms total)
TF9C0 000:956 JLINK_IsHalted() -- CPU_ReadMem(2 bytes @ 0x20000000)  returns TRUE (0004ms, 0407ms total)
TF9C0 000:960 JLINK_ReadReg(R15 (PC))  returns 0x20000000 (0000ms, 0403ms total)
TF9C0 000:960 JLINK_ClrBPEx(BPHandle = 0x00000007)  returns 0x00 (0000ms, 0403ms total)
TF9C0 000:960 JLINK_ReadReg(R0)  returns 0x00000000 (0000ms, 0403ms total)
TF9C0 000:962 JLINK_WriteMem(0x20000198, 0x0400 Bytes, ...) - Data: 4F F4 C0 60 00 90 03 20 CD E9 01 01 69 46 04 48 ... -- CPU_WriteMem(1024 bytes @ 0x20000198)  returns 0x400 (0004ms, 0407ms total)
TF9C0 000:966 JLINK_WriteReg(R0, 0x08000800)  returns 0x00 (0000ms, 0407ms total)
TF9C0 000:966 JLINK_WriteReg(R1, 0x00000400)  returns 0x00 (0000ms, 0407ms total)
TF9C0 000:966 JLINK_WriteReg(R2, 0x20000198)  returns 0x00 (0000ms, 0407ms total)
TF9C0 000:966 JLINK_WriteReg(R3, 0x00000000)  returns 0x00 (0000ms, 0407ms total)
TF9C0 000:966 JLINK_WriteReg(R4, 0x00000000)  returns 0x00 (0000ms, 0407ms total)
TF9C0 000:966 JLINK_WriteReg(R5, 0x00000000)  returns 0x00 (0000ms, 0407ms total)
TF9C0 000:966 JLINK_WriteReg(R6, 0x00000000)  returns 0x00 (0000ms, 0407ms total)
TF9C0 000:966 JLINK_WriteReg(R7, 0x00000000)  returns 0x00 (0000ms, 0407ms total)
TF9C0 000:966 JLINK_WriteReg(R8, 0x00000000)  returns 0x00 (0000ms, 0407ms total)
TF9C0 000:966 JLINK_WriteReg(R9, 0x20000194)  returns 0x00 (0000ms, 0407ms total)
TF9C0 000:966 JLINK_WriteReg(R10, 0x00000000)  returns 0x00 (0000ms, 0407ms total)
TF9C0 000:966 JLINK_WriteReg(R11, 0x00000000)  returns 0x00 (0000ms, 0407ms total)
TF9C0 000:966 JLINK_WriteReg(R12, 0x00000000)  returns 0x00 (0000ms, 0407ms total)
TF9C0 000:966 JLINK_WriteReg(R13 (SP), 0x20001000)  returns 0x00 (0000ms, 0407ms total)
TF9C0 000:966 JLINK_WriteReg(R14, 0x20000001)  returns 0x00 (0000ms, 0407ms total)
TF9C0 000:966 JLINK_WriteReg(R15 (PC), 0x20000120)  returns 0x00 (0000ms, 0407ms total)
TF9C0 000:966 JLINK_WriteReg(XPSR, 0x01000000)  returns 0x00 (0000ms, 0407ms total)
TF9C0 000:966 JLINK_WriteReg(MSP, 0x20001000)  returns 0x00 (0000ms, 0407ms total)
TF9C0 000:966 JLINK_WriteReg(PSP, 0x20001000)  returns 0x00 (0000ms, 0407ms total)
TF9C0 000:966 JLINK_WriteReg(CFBP, 0x00000000)  returns 0x00 (0000ms, 0407ms total)
TF9C0 000:966 JLINK_SetBPEx(Addr = 0x20000000, Type = 0xFFFFFFF2)  returns 0x00000008 (0000ms, 0407ms total)
TF9C0 000:966 JLINK_Go() -- CPU_ReadMem(4 bytes @ 0xE0001000) (0002ms, 0409ms total)
TF9C0 000:968 JLINK_IsHalted()  returns FALSE (0001ms, 0410ms total)
TF9C0 000:974 JLINK_IsHalted() -- CPU_ReadMem(2 bytes @ 0x20000000)  returns TRUE (0004ms, 0413ms total)
TF9C0 000:978 JLINK_ReadReg(R15 (PC))  returns 0x20000000 (0000ms, 0409ms total)
TF9C0 000:978 JLINK_ClrBPEx(BPHandle = 0x00000008)  returns 0x00 (0000ms, 0409ms total)
TF9C0 000:978 JLINK_ReadReg(R0)  returns 0x00000000 (0000ms, 0409ms total)
TF9C0 000:979 JLINK_WriteMem(0x20000198, 0x0400 Bytes, ...) - Data: 00 08 02 40 00 18 02 40 00 10 02 40 00 0C 02 40 ... -- CPU_WriteMem(1024 bytes @ 0x20000198)  returns 0x400 (0004ms, 0413ms total)
TF9C0 000:983 JLINK_WriteReg(R0, 0x08000C00)  returns 0x00 (0000ms, 0413ms total)
TF9C0 000:983 JLINK_WriteReg(R1, 0x00000400)  returns 0x00 (0000ms, 0413ms total)
TF9C0 000:983 JLINK_WriteReg(R2, 0x20000198)  returns 0x00 (0000ms, 0413ms total)
TF9C0 000:983 JLINK_WriteReg(R3, 0x00000000)  returns 0x00 (0000ms, 0413ms total)
TF9C0 000:983 JLINK_WriteReg(R4, 0x00000000)  returns 0x00 (0000ms, 0413ms total)
TF9C0 000:983 JLINK_WriteReg(R5, 0x00000000)  returns 0x00 (0000ms, 0413ms total)
TF9C0 000:983 JLINK_WriteReg(R6, 0x00000000)  returns 0x00 (0000ms, 0413ms total)
TF9C0 000:983 JLINK_WriteReg(R7, 0x00000000)  returns 0x00 (0000ms, 0413ms total)
TF9C0 000:983 JLINK_WriteReg(R8, 0x00000000)  returns 0x00 (0000ms, 0413ms total)
TF9C0 000:983 JLINK_WriteReg(R9, 0x20000194)  returns 0x00 (0000ms, 0413ms total)
TF9C0 000:983 JLINK_WriteReg(R10, 0x00000000)  returns 0x00 (0000ms, 0413ms total)
TF9C0 000:983 JLINK_WriteReg(R11, 0x00000000)  returns 0x00 (0000ms, 0413ms total)
TF9C0 000:983 JLINK_WriteReg(R12, 0x00000000)  returns 0x00 (0000ms, 0413ms total)
TF9C0 000:983 JLINK_WriteReg(R13 (SP), 0x20001000)  returns 0x00 (0000ms, 0413ms total)
TF9C0 000:983 JLINK_WriteReg(R14, 0x20000001)  returns 0x00 (0000ms, 0413ms total)
TF9C0 000:983 JLINK_WriteReg(R15 (PC), 0x20000120)  returns 0x00 (0000ms, 0413ms total)
TF9C0 000:983 JLINK_WriteReg(XPSR, 0x01000000)  returns 0x00 (0000ms, 0413ms total)
TF9C0 000:983 JLINK_WriteReg(MSP, 0x20001000)  returns 0x00 (0000ms, 0413ms total)
TF9C0 000:983 JLINK_WriteReg(PSP, 0x20001000)  returns 0x00 (0000ms, 0413ms total)
TF9C0 000:983 JLINK_WriteReg(CFBP, 0x00000000)  returns 0x00 (0000ms, 0413ms total)
TF9C0 000:983 JLINK_SetBPEx(Addr = 0x20000000, Type = 0xFFFFFFF2)  returns 0x00000009 (0000ms, 0413ms total)
TF9C0 000:983 JLINK_Go() -- CPU_ReadMem(4 bytes @ 0xE0001000) (0003ms, 0416ms total)
TF9C0 000:986 JLINK_IsHalted()  returns FALSE (0001ms, 0417ms total)
TF9C0 000:993 JLINK_IsHalted() -- CPU_ReadMem(2 bytes @ 0x20000000)  returns TRUE (0004ms, 0420ms total)
TF9C0 000:997 JLINK_ReadReg(R15 (PC))  returns 0x20000000 (0000ms, 0416ms total)
TF9C0 000:997 JLINK_ClrBPEx(BPHandle = 0x00000009)  returns 0x00 (0000ms, 0416ms total)
TF9C0 000:997 JLINK_ReadReg(R0)  returns 0x00000000 (0000ms, 0416ms total)
TF9C0 000:998 JLINK_WriteMem(0x20000198, 0x0400 Bytes, ...) - Data: B0 42 07 D2 88 F8 00 70 D8 F8 00 00 00 F0 0F 00 ... -- CPU_WriteMem(1024 bytes @ 0x20000198)  returns 0x400 (0004ms, 0420ms total)
TF9C0 001:002 JLINK_WriteReg(R0, 0x08001000)  returns 0x00 (0000ms, 0420ms total)
TF9C0 001:002 JLINK_WriteReg(R1, 0x00000400)  returns 0x00 (0000ms, 0420ms total)
TF9C0 001:002 JLINK_WriteReg(R2, 0x20000198)  returns 0x00 (0000ms, 0420ms total)
TF9C0 001:002 JLINK_WriteReg(R3, 0x00000000)  returns 0x00 (0000ms, 0420ms total)
TF9C0 001:002 JLINK_WriteReg(R4, 0x00000000)  returns 0x00 (0000ms, 0420ms total)
TF9C0 001:002 JLINK_WriteReg(R5, 0x00000000)  returns 0x00 (0000ms, 0420ms total)
TF9C0 001:002 JLINK_WriteReg(R6, 0x00000000)  returns 0x00 (0000ms, 0420ms total)
TF9C0 001:002 JLINK_WriteReg(R7, 0x00000000)  returns 0x00 (0000ms, 0420ms total)
TF9C0 001:002 JLINK_WriteReg(R8, 0x00000000)  returns 0x00 (0000ms, 0420ms total)
TF9C0 001:002 JLINK_WriteReg(R9, 0x20000194)  returns 0x00 (0000ms, 0420ms total)
TF9C0 001:002 JLINK_WriteReg(R10, 0x00000000)  returns 0x00 (0000ms, 0420ms total)
TF9C0 001:002 JLINK_WriteReg(R11, 0x00000000)  returns 0x00 (0000ms, 0420ms total)
TF9C0 001:002 JLINK_WriteReg(R12, 0x00000000)  returns 0x00 (0000ms, 0420ms total)
TF9C0 001:002 JLINK_WriteReg(R13 (SP), 0x20001000)  returns 0x00 (0000ms, 0420ms total)
TF9C0 001:002 JLINK_WriteReg(R14, 0x20000001)  returns 0x00 (0000ms, 0420ms total)
TF9C0 001:002 JLINK_WriteReg(R15 (PC), 0x20000120)  returns 0x00 (0000ms, 0420ms total)
TF9C0 001:002 JLINK_WriteReg(XPSR, 0x01000000)  returns 0x00 (0000ms, 0420ms total)
TF9C0 001:002 JLINK_WriteReg(MSP, 0x20001000)  returns 0x00 (0000ms, 0420ms total)
TF9C0 001:002 JLINK_WriteReg(PSP, 0x20001000)  returns 0x00 (0000ms, 0420ms total)
TF9C0 001:002 JLINK_WriteReg(CFBP, 0x00000000)  returns 0x00 (0000ms, 0420ms total)
TF9C0 001:002 JLINK_SetBPEx(Addr = 0x20000000, Type = 0xFFFFFFF2)  returns 0x0000000A (0001ms, 0421ms total)
TF9C0 001:003 JLINK_Go() -- CPU_ReadMem(4 bytes @ 0xE0001000) (0002ms, 0423ms total)
TF9C0 001:005 JLINK_IsHalted()  returns FALSE (0001ms, 0424ms total)
TF9C0 001:010 JLINK_IsHalted() -- CPU_ReadMem(2 bytes @ 0x20000000)  returns TRUE (0004ms, 0427ms total)
TF9C0 001:014 JLINK_ReadReg(R15 (PC))  returns 0x20000000 (0000ms, 0423ms total)
TF9C0 001:014 JLINK_ClrBPEx(BPHandle = 0x0000000A)  returns 0x00 (0000ms, 0423ms total)
TF9C0 001:014 JLINK_ReadReg(R0)  returns 0x00000000 (0000ms, 0423ms total)
TF9C0 001:017 JLINK_WriteMem(0x20000198, 0x0400 Bytes, ...) - Data: 00 99 41 1A 41 F2 88 30 81 42 54 D8 30 68 80 07 ... -- CPU_WriteMem(1024 bytes @ 0x20000198)  returns 0x400 (0004ms, 0427ms total)
TF9C0 001:021 JLINK_WriteReg(R0, 0x08001400)  returns 0x00 (0000ms, 0427ms total)
TF9C0 001:021 JLINK_WriteReg(R1, 0x00000400)  returns 0x00 (0000ms, 0427ms total)
TF9C0 001:021 JLINK_WriteReg(R2, 0x20000198)  returns 0x00 (0000ms, 0427ms total)
TF9C0 001:021 JLINK_WriteReg(R3, 0x00000000)  returns 0x00 (0000ms, 0427ms total)
TF9C0 001:021 JLINK_WriteReg(R4, 0x00000000)  returns 0x00 (0000ms, 0427ms total)
TF9C0 001:021 JLINK_WriteReg(R5, 0x00000000)  returns 0x00 (0000ms, 0427ms total)
TF9C0 001:021 JLINK_WriteReg(R6, 0x00000000)  returns 0x00 (0000ms, 0427ms total)
TF9C0 001:021 JLINK_WriteReg(R7, 0x00000000)  returns 0x00 (0000ms, 0427ms total)
TF9C0 001:021 JLINK_WriteReg(R8, 0x00000000)  returns 0x00 (0000ms, 0427ms total)
TF9C0 001:021 JLINK_WriteReg(R9, 0x20000194)  returns 0x00 (0000ms, 0427ms total)
TF9C0 001:021 JLINK_WriteReg(R10, 0x00000000)  returns 0x00 (0000ms, 0427ms total)
TF9C0 001:021 JLINK_WriteReg(R11, 0x00000000)  returns 0x00 (0000ms, 0427ms total)
TF9C0 001:021 JLINK_WriteReg(R12, 0x00000000)  returns 0x00 (0000ms, 0427ms total)
TF9C0 001:021 JLINK_WriteReg(R13 (SP), 0x20001000)  returns 0x00 (0000ms, 0427ms total)
TF9C0 001:021 JLINK_WriteReg(R14, 0x20000001)  returns 0x00 (0000ms, 0427ms total)
TF9C0 001:021 JLINK_WriteReg(R15 (PC), 0x20000120)  returns 0x00 (0000ms, 0427ms total)
TF9C0 001:021 JLINK_WriteReg(XPSR, 0x01000000)  returns 0x00 (0000ms, 0427ms total)
TF9C0 001:021 JLINK_WriteReg(MSP, 0x20001000)  returns 0x00 (0000ms, 0427ms total)
TF9C0 001:021 JLINK_WriteReg(PSP, 0x20001000)  returns 0x00 (0000ms, 0427ms total)
TF9C0 001:022 JLINK_WriteReg(CFBP, 0x00000000)  returns 0x00 (0000ms, 0428ms total)
TF9C0 001:022 JLINK_SetBPEx(Addr = 0x20000000, Type = 0xFFFFFFF2)  returns 0x0000000B (0000ms, 0428ms total)
TF9C0 001:022 JLINK_Go() -- CPU_ReadMem(4 bytes @ 0xE0001000) (0003ms, 0431ms total)
TF9C0 001:025 JLINK_IsHalted()  returns FALSE (0001ms, 0432ms total)
TF9C0 001:032 JLINK_IsHalted() -- CPU_ReadMem(2 bytes @ 0x20000000)  returns TRUE (0004ms, 0435ms total)
TF9C0 001:036 JLINK_ReadReg(R15 (PC))  returns 0x20000000 (0000ms, 0431ms total)
TF9C0 001:036 JLINK_ClrBPEx(BPHandle = 0x0000000B)  returns 0x00 (0000ms, 0431ms total)
TF9C0 001:036 JLINK_ReadReg(R0)  returns 0x00000000 (0000ms, 0431ms total)
TF9C0 001:037 JLINK_WriteMem(0x20000198, 0x0400 Bytes, ...) - Data: DF F8 BC 82 C4 45 67 D1 D0 F8 00 C0 A8 46 4C F4 ... -- CPU_WriteMem(1024 bytes @ 0x20000198)  returns 0x400 (0004ms, 0435ms total)
TF9C0 001:041 JLINK_WriteReg(R0, 0x08001800)  returns 0x00 (0000ms, 0435ms total)
TF9C0 001:041 JLINK_WriteReg(R1, 0x00000400)  returns 0x00 (0000ms, 0435ms total)
TF9C0 001:041 JLINK_WriteReg(R2, 0x20000198)  returns 0x00 (0000ms, 0435ms total)
TF9C0 001:041 JLINK_WriteReg(R3, 0x00000000)  returns 0x00 (0000ms, 0435ms total)
TF9C0 001:041 JLINK_WriteReg(R4, 0x00000000)  returns 0x00 (0000ms, 0435ms total)
TF9C0 001:041 JLINK_WriteReg(R5, 0x00000000)  returns 0x00 (0000ms, 0435ms total)
TF9C0 001:041 JLINK_WriteReg(R6, 0x00000000)  returns 0x00 (0000ms, 0435ms total)
TF9C0 001:041 JLINK_WriteReg(R7, 0x00000000)  returns 0x00 (0000ms, 0435ms total)
TF9C0 001:041 JLINK_WriteReg(R8, 0x00000000)  returns 0x00 (0000ms, 0435ms total)
TF9C0 001:041 JLINK_WriteReg(R9, 0x20000194)  returns 0x00 (0000ms, 0435ms total)
TF9C0 001:041 JLINK_WriteReg(R10, 0x00000000)  returns 0x00 (0000ms, 0435ms total)
TF9C0 001:041 JLINK_WriteReg(R11, 0x00000000)  returns 0x00 (0000ms, 0435ms total)
TF9C0 001:041 JLINK_WriteReg(R12, 0x00000000)  returns 0x00 (0000ms, 0435ms total)
TF9C0 001:041 JLINK_WriteReg(R13 (SP), 0x20001000)  returns 0x00 (0000ms, 0435ms total)
TF9C0 001:041 JLINK_WriteReg(R14, 0x20000001)  returns 0x00 (0000ms, 0435ms total)
TF9C0 001:041 JLINK_WriteReg(R15 (PC), 0x20000120)  returns 0x00 (0000ms, 0435ms total)
TF9C0 001:041 JLINK_WriteReg(XPSR, 0x01000000)  returns 0x00 (0001ms, 0436ms total)
TF9C0 001:042 JLINK_WriteReg(MSP, 0x20001000)  returns 0x00 (0000ms, 0436ms total)
TF9C0 001:042 JLINK_WriteReg(PSP, 0x20001000)  returns 0x00 (0000ms, 0436ms total)
TF9C0 001:042 JLINK_WriteReg(CFBP, 0x00000000)  returns 0x00 (0000ms, 0436ms total)
TF9C0 001:042 JLINK_SetBPEx(Addr = 0x20000000, Type = 0xFFFFFFF2)  returns 0x0000000C (0000ms, 0436ms total)
TF9C0 001:042 JLINK_Go() -- CPU_ReadMem(4 bytes @ 0xE0001000) (0003ms, 0439ms total)
TF9C0 001:045 JLINK_IsHalted()  returns FALSE (0001ms, 0440ms total)
TF9C0 001:051 JLINK_IsHalted() -- CPU_ReadMem(2 bytes @ 0x20000000)  returns TRUE (0004ms, 0443ms total)
TF9C0 001:055 JLINK_ReadReg(R15 (PC))  returns 0x20000000 (0000ms, 0439ms total)
TF9C0 001:055 JLINK_ClrBPEx(BPHandle = 0x0000000C)  returns 0x00 (0000ms, 0439ms total)
TF9C0 001:055 JLINK_ReadReg(R0)  returns 0x00000000 (0000ms, 0439ms total)
TF9C0 001:056 JLINK_WriteMem(0x20000198, 0x0400 Bytes, ...) - Data: C0 F3 08 00 48 60 20 69 08 B1 6D 1C 05 E0 AD 1C ... -- CPU_WriteMem(1024 bytes @ 0x20000198)  returns 0x400 (0004ms, 0443ms total)
TF9C0 001:060 JLINK_WriteReg(R0, 0x08001C00)  returns 0x00 (0000ms, 0443ms total)
TF9C0 001:060 JLINK_WriteReg(R1, 0x00000400)  returns 0x00 (0000ms, 0443ms total)
TF9C0 001:060 JLINK_WriteReg(R2, 0x20000198)  returns 0x00 (0000ms, 0443ms total)
TF9C0 001:060 JLINK_WriteReg(R3, 0x00000000)  returns 0x00 (0000ms, 0443ms total)
TF9C0 001:060 JLINK_WriteReg(R4, 0x00000000)  returns 0x00 (0000ms, 0443ms total)
TF9C0 001:060 JLINK_WriteReg(R5, 0x00000000)  returns 0x00 (0000ms, 0443ms total)
TF9C0 001:060 JLINK_WriteReg(R6, 0x00000000)  returns 0x00 (0000ms, 0443ms total)
TF9C0 001:060 JLINK_WriteReg(R7, 0x00000000)  returns 0x00 (0000ms, 0443ms total)
TF9C0 001:060 JLINK_WriteReg(R8, 0x00000000)  returns 0x00 (0000ms, 0443ms total)
TF9C0 001:060 JLINK_WriteReg(R9, 0x20000194)  returns 0x00 (0000ms, 0443ms total)
TF9C0 001:060 JLINK_WriteReg(R10, 0x00000000)  returns 0x00 (0000ms, 0443ms total)
TF9C0 001:060 JLINK_WriteReg(R11, 0x00000000)  returns 0x00 (0000ms, 0443ms total)
TF9C0 001:060 JLINK_WriteReg(R12, 0x00000000)  returns 0x00 (0000ms, 0443ms total)
TF9C0 001:060 JLINK_WriteReg(R13 (SP), 0x20001000)  returns 0x00 (0000ms, 0443ms total)
TF9C0 001:060 JLINK_WriteReg(R14, 0x20000001)  returns 0x00 (0000ms, 0443ms total)
TF9C0 001:060 JLINK_WriteReg(R15 (PC), 0x20000120)  returns 0x00 (0000ms, 0443ms total)
TF9C0 001:060 JLINK_WriteReg(XPSR, 0x01000000)  returns 0x00 (0000ms, 0443ms total)
TF9C0 001:060 JLINK_WriteReg(MSP, 0x20001000)  returns 0x00 (0000ms, 0443ms total)
TF9C0 001:060 JLINK_WriteReg(PSP, 0x20001000)  returns 0x00 (0000ms, 0443ms total)
TF9C0 001:060 JLINK_WriteReg(CFBP, 0x00000000)  returns 0x00 (0000ms, 0443ms total)
TF9C0 001:060 JLINK_SetBPEx(Addr = 0x20000000, Type = 0xFFFFFFF2)  returns 0x0000000D (0000ms, 0443ms total)
TF9C0 001:060 JLINK_Go() -- CPU_ReadMem(4 bytes @ 0xE0001000) (0002ms, 0445ms total)
TF9C0 001:063 JLINK_IsHalted()  returns FALSE (0001ms, 0447ms total)
TF9C0 001:067 JLINK_IsHalted() -- CPU_ReadMem(2 bytes @ 0x20000000)  returns TRUE (0004ms, 0450ms total)
TF9C0 001:071 JLINK_ReadReg(R15 (PC))  returns 0x20000000 (0000ms, 0446ms total)
TF9C0 001:071 JLINK_ClrBPEx(BPHandle = 0x0000000D)  returns 0x00 (0000ms, 0446ms total)
TF9C0 001:071 JLINK_ReadReg(R0)  returns 0x00000000 (0000ms, 0446ms total)
TF9C0 001:074 JLINK_WriteMem(0x20000198, 0x0400 Bytes, ...) - Data: 10 40 4F 21 03 A0 00 F0 08 BC 10 BD 00 4C 00 40 ... -- CPU_WriteMem(1024 bytes @ 0x20000198)  returns 0x400 (0004ms, 0450ms total)
TF9C0 001:078 JLINK_WriteReg(R0, 0x08002000)  returns 0x00 (0000ms, 0450ms total)
TF9C0 001:078 JLINK_WriteReg(R1, 0x00000400)  returns 0x00 (0000ms, 0450ms total)
TF9C0 001:078 JLINK_WriteReg(R2, 0x20000198)  returns 0x00 (0000ms, 0450ms total)
TF9C0 001:078 JLINK_WriteReg(R3, 0x00000000)  returns 0x00 (0000ms, 0450ms total)
TF9C0 001:078 JLINK_WriteReg(R4, 0x00000000)  returns 0x00 (0000ms, 0450ms total)
TF9C0 001:078 JLINK_WriteReg(R5, 0x00000000)  returns 0x00 (0000ms, 0450ms total)
TF9C0 001:078 JLINK_WriteReg(R6, 0x00000000)  returns 0x00 (0000ms, 0450ms total)
TF9C0 001:078 JLINK_WriteReg(R7, 0x00000000)  returns 0x00 (0000ms, 0450ms total)
TF9C0 001:078 JLINK_WriteReg(R8, 0x00000000)  returns 0x00 (0000ms, 0450ms total)
